T1560 446:538 SEGGER J-Link V6.32i Log File (0002ms, 4436ms total)
T1560 446:538 DLL Compiled: Jul 24 2018 15:19:55 (0002ms, 4436ms total)
T1560 446:538 Logging started @ 2019-03-26 08:56 (0002ms, 4436ms total)
T1560 446:540 JLINK_SetWarnOutHandler(...) (0000ms, 4436ms total)
T1560 446:540 JLINK_OpenEx(...)
Firmware: J-Link ARM-OB STM32 compiled Aug 22 2012 19:52:04
Hardware: V7.00
S/N: 20090928
Feature(s): RDI,FlashDL,FlashBP,JFlash,GDBFull
TELNET listener socket opened on port 19021WEBSRV 
Starting webserver (0023ms, 4459ms total)
T1560 446:540 WEBSRV Webserver running on local port 19080 (0024ms, 4460ms total)
T1560 446:540   returns O.K. (0024ms, 4460ms total)
T1560 446:564 JLINK_GetEmuCaps()  returns 0x88EA5833 (0000ms, 4460ms total)
T1560 446:565 JLINK_TIF_GetAvailable(...) (0001ms, 4461ms total)
T1560 446:566 JLINK_SetErrorOutHandler(...) (0000ms, 4461ms total)
T1560 446:567 JLINK_ExecCommand("ProjectFile = "D:\Downloads\DeviceDownload\nRF5SDK1500a53641a\nRF5_SDK_15.0.0_a53641a\examples\ble_peripheral\ble_app_beacon_tag_radioland\pca10040\s132\arm5_no_packs\JLinkSettings.ini"", ...).   returns 0x00 (0006ms, 4467ms total)
T1560 446:582 JLINK_ExecCommand("Device = nRF52832_xxAA", ...). Device "NRF52832_XXAA" selected.  returns 0x00 (0010ms, 4477ms total)
T1560 446:592 JLINK_ExecCommand("DisableConnectionTimeout", ...).   returns 0x01 (0000ms, 4477ms total)
T1560 446:592 JLINK_GetHardwareVersion()  returns 0x11170 (0000ms, 4477ms total)
T1560 446:592 JLINK_GetDLLVersion()  returns 63209 (0000ms, 4477ms total)
T1560 446:592 JLINK_GetFirmwareString(...) (0000ms, 4477ms total)
T1560 446:607 JLINK_GetDLLVersion()  returns 63209 (0000ms, 4477ms total)
T1560 446:607 JLINK_GetCompileDateTime() (0000ms, 4477ms total)
T1560 446:618 JLINK_GetFirmwareString(...) (0000ms, 4477ms total)
T1560 446:621 JLINK_GetHardwareVersion()  returns 0x11170 (0000ms, 4477ms total)
T1560 446:637 JLINK_TIF_Select(JLINKARM_TIF_SWD)  returns 0x00 (0002ms, 4479ms total)
T1560 446:639 JLINK_SetSpeed(5000) (0001ms, 4480ms total)
T1560 446:640 JLINK_GetId() >0x10B TIF>Found SW-DP with ID 0x2BA01477 >0x0D TIF> >0x28 TIF> >0x0D TIF> >0x28 TIF> >0x0D TIF> >0x28 TIF> >0x0D TIF> >0x28 TIF> >0x0D TIF> >0x28 TIF> >0x0D TIF> >0x28 TIF> >0x35 TIF> >0x35 TIF> >0x0D TIF> >0x28 TIF> >0x35 TIF> >0x35 TIF> >0x10B TIF>Found SW-DP with ID 0x2BA01477 >0x0D TIF> >0x28 TIF> >0x0D TIF> >0x28 TIF> >0x0D TIF> >0x28 TIF> >0x0D TIF> >0x28 TIF> >0x35 TIF> >0x0D TIF> >0x28 TIF>Scanning AP map to find all available APs >0x0D TIF> >0x28 TIF> >0x35 TIF>
 >0x35 TIF> >0x0D TIF> >0x28 TIF> >0x35 TIF> >0x35 TIF> >0x0D TIF> >0x28 TIF> >0x35 TIF> >0x35 TIF>AP[2]: Stopped AP scan as end of AP map has been reachedAP[0]: AHB-AP (IDR: 0x24770011)AP[1]: JTAG-AP (IDR: 0x02880000)Iterating through AP map to find AHB-AP to use >0x42 TIF> >0x28 TIF> >0x0D TIF> >0x28 TIF> >0x35 TIF> >0x35 TIF> >0x42 TIF> >0x28 TIF> >0x0D TIF> >0x28 TIF> >0x0D TIF> >0x28 TIF> >0x35 TIF> >0x35 TIF>AP[0]: Core foundAP[0]: AHB-AP ROM base: 0xE00FF000 >0x0D TIF> >0x28 TIF> >0x0D TIF>
 >0x28 TIF> >0x0D TIF> >0x28 TIF> >0x35 TIF> >0x35 TIF>CPUID register: 0x410FC241. Implementer code: 0x41 (ARM)Found Cortex-M4 r0p1, Little endian. -- Max. mem block: 0x00002C08 -- CPU_ReadMem(4 bytes @ 0xE000EDF0) -- CPU_ReadMem(4 bytes @ 0xE0002000)FPUnit: 6 code (BP) slots and 2 literal slots -- CPU_ReadMem(4 bytes @ 0xE000EDFC) -- CPU_WriteMem(4 bytes @ 0xE000EDFC) -- CPU_ReadMem(4 bytes @ 0xE0001000) -- CPU_WriteMem(4 bytes @ 0xE0001000) -- CPU_ReadMem(4 bytes @ 0xE000ED88)
 -- CPU_WriteMem(4 bytes @ 0xE000ED88) -- CPU_ReadMem(4 bytes @ 0xE000ED88) -- CPU_WriteMem(4 bytes @ 0xE000ED88)CoreSight components:ROMTbl[0] @ E00FF000 -- CPU_ReadMem(16 bytes @ 0xE00FF000) -- CPU_ReadMem(16 bytes @ 0xE000EFF0) -- CPU_ReadMem(16 bytes @ 0xE000EFE0)ROMTbl[0][0]: E000E000, CID: B105E00D, PID: 000BB00C SCS-M7 -- CPU_ReadMem(16 bytes @ 0xE0001FF0) -- CPU_ReadMem(16 bytes @ 0xE0001FE0)ROMTbl[0][1]: E0001000, CID: B105E00D, PID: 003BB002 DWT -- CPU_ReadMem(16 bytes @ 0xE0002FF0)
 -- CPU_ReadMem(16 bytes @ 0xE0002FE0)ROMTbl[0][2]: E0002000, CID: B105E00D, PID: 002BB003 FPB -- CPU_ReadMem(16 bytes @ 0xE0000FF0) -- CPU_ReadMem(16 bytes @ 0xE0000FE0)ROMTbl[0][3]: E0000000, CID: B105E00D, PID: 003BB001 ITM -- CPU_ReadMem(16 bytes @ 0xE00FF010) -- CPU_ReadMem(16 bytes @ 0xE0040FF0) -- CPU_ReadMem(16 bytes @ 0xE0040FE0)ROMTbl[0][4]: E0040000, CID: B105900D, PID: 000BB9A1 TPIU -- CPU_ReadMem(16 bytes @ 0xE0041FF0) -- CPU_ReadMem(16 bytes @ 0xE0041FE0)
ROMTbl[0][5]: E0041000, CID: B105900D, PID: 000BB925 ETM >0x35 TIF>  returns 0x2BA01477 (0284ms, 4764ms total)
T1560 446:925 JLINK_GetDLLVersion()  returns 63209 (0000ms, 4764ms total)
T1560 446:925 JLINK_CORE_GetFound()  returns 0xE0000FF (0000ms, 4764ms total)
T1560 446:925 JLINK_GetDebugInfo(0x100 = JLINKARM_ROM_TABLE_ADDR_INDEX) -- Value=0xE00FF000  returns 0x00 (0000ms, 4764ms total)
T1560 446:929 JLINK_GetDebugInfo(0x100 = JLINKARM_ROM_TABLE_ADDR_INDEX) -- Value=0xE00FF000  returns 0x00 (0000ms, 4764ms total)
T1560 446:929 JLINK_GetDebugInfo(0x101 = JLINKARM_DEBUG_INFO_ETM_ADDR_INDEX) -- Value=0xE0041000  returns 0x00 (0000ms, 4764ms total)
T1560 446:929 JLINK_ReadMemEx(0xE0041FD0, 0x0020 Bytes, ..., Flags = 0x02000004) -- CPU_ReadMem(32 bytes @ 0xE0041FD0) - Data: 04 00 00 00 00 00 00 00 00 00 00 00 00 00 00 00 ...  returns 0x20 (0002ms, 4766ms total)
T1560 446:931 JLINK_GetDebugInfo(0x102 = JLINKARM_DEBUG_INFO_MTB_ADDR_INDEX) -- Value=0x00000000  returns 0x00 (0000ms, 4766ms total)
T1560 446:931 JLINK_GetDebugInfo(0x103 = JLINKARM_DEBUG_INFO_TPIU_ADDR_INDEX) -- Value=0xE0040000  returns 0x00 (0000ms, 4766ms total)
T1560 446:931 JLINK_GetDebugInfo(0x104 = JLINKARM_DEBUG_INFO_ITM_ADDR_INDEX) -- Value=0xE0000000  returns 0x00 (0000ms, 4766ms total)
T1560 446:931 JLINK_GetDebugInfo(0x105 = JLINKARM_DEBUG_INFO_DWT_ADDR_INDEX) -- Value=0xE0001000  returns 0x00 (0000ms, 4766ms total)
T1560 446:931 JLINK_GetDebugInfo(0x106 = JLINKARM_DEBUG_INFO_FPB_ADDR_INDEX) -- Value=0xE0002000  returns 0x00 (0000ms, 4766ms total)
T1560 446:931 JLINK_GetDebugInfo(0x107 = JLINKARM_DEBUG_INFO_NVIC_ADDR_INDEX) -- Value=0xE000E000  returns 0x00 (0000ms, 4766ms total)
T1560 446:931 JLINK_GetDebugInfo(0x10C = JLINKARM_DEBUG_INFO_DBG_ADDR_INDEX) -- Value=0xE000EDF0  returns 0x00 (0000ms, 4766ms total)
T1560 446:931 JLINK_GetDebugInfo(0x01 = Unknown) -- Value=0x00000001  returns 0x00 (0000ms, 4766ms total)
T1560 446:931 JLINK_ReadMemU32(0xE000ED00, 0x0001 Items, ...) -- CPU_ReadMem(4 bytes @ 0xE000ED00) - Data: 41 C2 0F 41  returns 0x01 (0002ms, 4768ms total)
T1560 446:933 JLINK_GetDebugInfo(0x10F = JLINKARM_DEBUG_INFO_HAS_CORTEX_M_SECURITY_EXT_INDEX) -- Value=0x00000000  returns 0x00 (0000ms, 4768ms total)
T1560 446:933 JLINK_SetResetType(JLINKARM_CM3_RESET_TYPE_NORMAL)  returns JLINKARM_CM3_RESET_TYPE_NORMAL (0000ms, 4768ms total)
T1560 446:933 JLINK_Reset() -- CPU is running -- CPU_WriteMem(4 bytes @ 0xE000EDF0) -- CPU is running -- CPU_WriteMem(4 bytes @ 0xE000EDFC)Reset: Halt core after reset via DEMCR.VC_CORERESET. >0x35 TIF>Reset: Reset device via AIRCR.SYSRESETREQ. -- CPU is running -- CPU_WriteMem(4 bytes @ 0xE000ED0C) >0x0D TIF> >0x28 TIF> -- CPU_ReadMem(4 bytes @ 0xE000EDF0) -- CPU_ReadMem(4 bytes @ 0xE000EDF0) -- CPU is running -- CPU_WriteMem(4 bytes @ 0xE000EDF0) -- CPU is running -- CPU_WriteMem(4 bytes @ 0xE000EDFC)
 -- CPU_ReadMem(4 bytes @ 0xE000EDF0) -- CPU_WriteMem(4 bytes @ 0xE0002000) -- CPU_ReadMem(4 bytes @ 0xE000EDFC) -- CPU_ReadMem(4 bytes @ 0xE0001000) (0083ms, 4851ms total)
T1560 447:016 JLINK_Halt()  returns 0x00 (0000ms, 4851ms total)
T1560 447:016 JLINK_ReadMemU32(0xE000EDF0, 0x0001 Items, ...) -- CPU_ReadMem(4 bytes @ 0xE000EDF0) - Data: 03 00 03 00  returns 0x01 (0002ms, 4853ms total)
T1560 447:018 JLINK_WriteU32(0xE000EDF0, 0xA05F0003) -- CPU_WriteMem(4 bytes @ 0xE000EDF0)  returns 0x00 (0001ms, 4854ms total)
T1560 447:019 JLINK_WriteU32(0xE000EDFC, 0x01000000) -- CPU_WriteMem(4 bytes @ 0xE000EDFC)  returns 0x00 (0001ms, 4855ms total)
T1560 447:035 JLINK_GetHWStatus(...)  returns 0x00 (0001ms, 4856ms total)
T1560 447:046 JLINK_GetNumBPUnits(Type = 0xFFFFFF00)  returns 0x06 (0000ms, 4856ms total)
T1560 447:046 JLINK_GetNumBPUnits(Type = 0xF0)  returns 0x2000 (0000ms, 4856ms total)
T1560 447:046 JLINK_GetNumWPUnits()  returns 0x04 (0000ms, 4856ms total)
T1560 447:056 JLINK_GetSpeed()  returns 0xFA0 (0000ms, 4856ms total)
T1560 447:063 JLINK_ReadMemU32(0xE000E004, 0x0001 Items, ...) -- CPU_ReadMem(4 bytes @ 0xE000E004) - Data: 01 00 00 00  returns 0x01 (0002ms, 4858ms total)
T1560 447:065 JLINK_ReadMemU32(0xE000E004, 0x0001 Items, ...) -- CPU_ReadMem(4 bytes @ 0xE000E004) - Data: 01 00 00 00  returns 0x01 (0001ms, 4859ms total)
T1560 447:066 JLINK_WriteMemEx(0xE0001000, 0x001C Bytes, ..., Flags = 0x02000004) - Data: 01 00 00 00 00 00 00 00 00 00 00 00 00 00 00 00 ... -- CPU_WriteMem(28 bytes @ 0xE0001000)  returns 0x1C (0003ms, 4862ms total)
T1560 447:069 JLINK_Halt()  returns 0x00 (0000ms, 4862ms total)
T1560 447:069 JLINK_IsHalted()  returns TRUE (0000ms, 4862ms total)
T1560 447:075 JLINK_WriteMem(0x20000000, 0x0234 Bytes, ...) - Data: 00 BE 0A E0 0D 78 2D 06 68 40 08 24 40 00 00 D3 ... -- CPU_WriteMem(564 bytes @ 0x20000000)  returns 0x234 (0008ms, 4870ms total)
T1560 447:083 JLINK_WriteReg(R0, 0x00000000)  returns 0x00 (0000ms, 4870ms total)
T1560 447:083 JLINK_WriteReg(R1, 0x03D09000)  returns 0x00 (0000ms, 4870ms total)
T1560 447:083 JLINK_WriteReg(R2, 0x00000001)  returns 0x00 (0001ms, 4871ms total)
T1560 447:084 JLINK_WriteReg(R3, 0x00000000)  returns 0x00 (0000ms, 4871ms total)
T1560 447:084 JLINK_WriteReg(R4, 0x00000000)  returns 0x00 (0000ms, 4871ms total)
T1560 447:084 JLINK_WriteReg(R5, 0x00000000)  returns 0x00 (0000ms, 4871ms total)
T1560 447:084 JLINK_WriteReg(R6, 0x00000000)  returns 0x00 (0000ms, 4871ms total)
T1560 447:084 JLINK_WriteReg(R7, 0x00000000)  returns 0x00 (0000ms, 4871ms total)
T1560 447:084 JLINK_WriteReg(R8, 0x00000000)  returns 0x00 (0000ms, 4871ms total)
T1560 447:084 JLINK_WriteReg(R9, 0x20000230)  returns 0x00 (0000ms, 4871ms total)
T1560 447:084 JLINK_WriteReg(R10, 0x00000000)  returns 0x00 (0000ms, 4871ms total)
T1560 447:084 JLINK_WriteReg(R11, 0x00000000)  returns 0x00 (0000ms, 4871ms total)
T1560 447:084 JLINK_WriteReg(R12, 0x00000000)  returns 0x00 (0000ms, 4871ms total)
T1560 447:084 JLINK_WriteReg(R13 (SP), 0x20002000)  returns 0x00 (0000ms, 4871ms total)
T1560 447:084 JLINK_WriteReg(R14, 0x20000001)  returns 0x00 (0000ms, 4871ms total)
T1560 447:084 JLINK_WriteReg(R15 (PC), 0x2000003C)  returns 0x00 (0000ms, 4871ms total)
T1560 447:084 JLINK_WriteReg(XPSR, 0x01000000)  returns 0x00 (0000ms, 4871ms total)
T1560 447:084 JLINK_WriteReg(MSP, 0x20002000)  returns 0x00 (0000ms, 4871ms total)
T1560 447:084 JLINK_WriteReg(PSP, 0x20002000)  returns 0x00 (0000ms, 4871ms total)
T1560 447:084 JLINK_WriteReg(CFBP, 0x00000000)  returns 0x00 (0000ms, 4871ms total)
T1560 447:084 JLINK_SetBPEx(Addr = 0x20000000, Type = 0xFFFFFFF2) -- CPU_ReadMem(2 bytes @ 0x20000000)  returns 0x00000001 (0002ms, 4873ms total)
T1560 447:086 JLINK_Go() -- CPU_WriteMem(2 bytes @ 0x20000000) -- CPU_ReadMem(4 bytes @ 0xE0001000) -- CPU_WriteMem(4 bytes @ 0xE0002008) -- CPU_WriteMem(4 bytes @ 0xE000200C) -- CPU_WriteMem(4 bytes @ 0xE0002010) -- CPU_WriteMem(4 bytes @ 0xE0002014) -- CPU_WriteMem(4 bytes @ 0xE0002018) -- CPU_WriteMem(4 bytes @ 0xE000201C) -- CPU_WriteMem(4 bytes @ 0xE0001004) (0012ms, 4885ms total)
T1560 447:098 JLINK_IsHalted() -- CPU_ReadMem(2 bytes @ 0x20000000)  returns TRUE (0005ms, 4890ms total)
T1560 447:103 JLINK_ReadReg(R15 (PC))  returns 0x20000000 (0000ms, 4885ms total)
T1560 447:103 JLINK_ClrBPEx(BPHandle = 0x00000001)  returns 0x00 (0000ms, 4885ms total)
T1560 447:103 JLINK_ReadReg(R0)  returns 0x00000000 (0000ms, 4885ms total)
T1560 447:104 JLINK_WriteReg(R0, 0x00026000)  returns 0x00 (0000ms, 4885ms total)
T1560 447:104 JLINK_WriteReg(R1, 0x00001000)  returns 0x00 (0000ms, 4885ms total)
T1560 447:104 JLINK_WriteReg(R2, 0x000000FF)  returns 0x00 (0000ms, 4885ms total)
T1560 447:104 JLINK_WriteReg(R3, 0x00000000)  returns 0x00 (0000ms, 4885ms total)
T1560 447:104 JLINK_WriteReg(R4, 0x00000000)  returns 0x00 (0000ms, 4885ms total)
T1560 447:104 JLINK_WriteReg(R5, 0x00000000)  returns 0x00 (0000ms, 4885ms total)
T1560 447:104 JLINK_WriteReg(R6, 0x00000000)  returns 0x00 (0000ms, 4885ms total)
T1560 447:104 JLINK_WriteReg(R7, 0x00000000)  returns 0x00 (0000ms, 4885ms total)
T1560 447:104 JLINK_WriteReg(R8, 0x00000000)  returns 0x00 (0000ms, 4885ms total)
T1560 447:104 JLINK_WriteReg(R9, 0x20000230)  returns 0x00 (0000ms, 4885ms total)
T1560 447:104 JLINK_WriteReg(R10, 0x00000000)  returns 0x00 (0000ms, 4885ms total)
T1560 447:104 JLINK_WriteReg(R11, 0x00000000)  returns 0x00 (0000ms, 4885ms total)
T1560 447:104 JLINK_WriteReg(R12, 0x00000000)  returns 0x00 (0000ms, 4885ms total)
T1560 447:104 JLINK_WriteReg(R13 (SP), 0x20002000)  returns 0x00 (0000ms, 4885ms total)
T1560 447:104 JLINK_WriteReg(R14, 0x20000001)  returns 0x00 (0000ms, 4885ms total)
T1560 447:104 JLINK_WriteReg(R15 (PC), 0x2000011A)  returns 0x00 (0000ms, 4885ms total)
T1560 447:104 JLINK_WriteReg(XPSR, 0x01000000)  returns 0x00 (0000ms, 4885ms total)
T1560 447:104 JLINK_WriteReg(MSP, 0x20002000)  returns 0x00 (0000ms, 4885ms total)
T1560 447:104 JLINK_WriteReg(PSP, 0x20002000)  returns 0x00 (0000ms, 4885ms total)
T1560 447:104 JLINK_WriteReg(CFBP, 0x00000000)  returns 0x00 (0000ms, 4885ms total)
T1560 447:105 JLINK_SetBPEx(Addr = 0x20000000, Type = 0xFFFFFFF2)  returns 0x00000002 (0000ms, 4886ms total)
T1560 447:105 JLINK_Go() -- CPU_ReadMem(4 bytes @ 0xE0001000) (0004ms, 4890ms total)
T1560 447:109 JLINK_IsHalted() -- CPU_ReadMem(2 bytes @ 0x20000000)  returns TRUE (0005ms, 4895ms total)
T1560 447:114 JLINK_ReadReg(R15 (PC))  returns 0x20000000 (0000ms, 4890ms total)
T1560 447:114 JLINK_ClrBPEx(BPHandle = 0x00000002)  returns 0x00 (0000ms, 4890ms total)
T1560 447:114 JLINK_ReadReg(R0)  returns 0x00000001 (0000ms, 4890ms total)
T1560 447:114 JLINK_WriteReg(R0, 0x00026000)  returns 0x00 (0000ms, 4890ms total)
T1560 447:114 JLINK_WriteReg(R1, 0x00001000)  returns 0x00 (0000ms, 4890ms total)
T1560 447:114 JLINK_WriteReg(R2, 0x000000FF)  returns 0x00 (0000ms, 4890ms total)
T1560 447:114 JLINK_WriteReg(R3, 0x00000000)  returns 0x00 (0001ms, 4891ms total)
T1560 447:115 JLINK_WriteReg(R4, 0x00000000)  returns 0x00 (0000ms, 4891ms total)
T1560 447:115 JLINK_WriteReg(R5, 0x00000000)  returns 0x00 (0000ms, 4891ms total)
T1560 447:115 JLINK_WriteReg(R6, 0x00000000)  returns 0x00 (0000ms, 4891ms total)
T1560 447:115 JLINK_WriteReg(R7, 0x00000000)  returns 0x00 (0000ms, 4891ms total)
T1560 447:115 JLINK_WriteReg(R8, 0x00000000)  returns 0x00 (0000ms, 4891ms total)
T1560 447:115 JLINK_WriteReg(R9, 0x20000230)  returns 0x00 (0000ms, 4891ms total)
T1560 447:115 JLINK_WriteReg(R10, 0x00000000)  returns 0x00 (0000ms, 4891ms total)
T1560 447:115 JLINK_WriteReg(R11, 0x00000000)  returns 0x00 (0000ms, 4891ms total)
T1560 447:115 JLINK_WriteReg(R12, 0x00000000)  returns 0x00 (0000ms, 4891ms total)
T1560 447:115 JLINK_WriteReg(R13 (SP), 0x20002000)  returns 0x00 (0000ms, 4891ms total)
T1560 447:115 JLINK_WriteReg(R14, 0x20000001)  returns 0x00 (0000ms, 4891ms total)
T1560 447:115 JLINK_WriteReg(R15 (PC), 0x200000D8)  returns 0x00 (0000ms, 4891ms total)
T1560 447:115 JLINK_WriteReg(XPSR, 0x01000000)  returns 0x00 (0000ms, 4891ms total)
T1560 447:115 JLINK_WriteReg(MSP, 0x20002000)  returns 0x00 (0000ms, 4891ms total)
T1560 447:115 JLINK_WriteReg(PSP, 0x20002000)  returns 0x00 (0000ms, 4891ms total)
T1560 447:115 JLINK_WriteReg(CFBP, 0x00000000)  returns 0x00 (0000ms, 4891ms total)
T1560 447:115 JLINK_SetBPEx(Addr = 0x20000000, Type = 0xFFFFFFF2)  returns 0x00000003 (0000ms, 4891ms total)
T1560 447:115 JLINK_Go() -- CPU_ReadMem(4 bytes @ 0xE0001000) (0004ms, 4895ms total)
T1560 447:119 JLINK_IsHalted()  returns FALSE (0001ms, 4896ms total)
T1560 447:174 JLINK_IsHalted() -- CPU_ReadMem(2 bytes @ 0x20000000)  returns TRUE (0005ms, 4900ms total)
T1560 447:179 JLINK_ReadReg(R15 (PC))  returns 0x20000000 (0000ms, 4895ms total)
T1560 447:179 JLINK_ClrBPEx(BPHandle = 0x00000003)  returns 0x00 (0000ms, 4895ms total)
T1560 447:179 JLINK_ReadReg(R0)  returns 0x00000000 (0001ms, 4896ms total)
T1560 447:181 JLINK_WriteReg(R0, 0x00027000)  returns 0x00 (0000ms, 4896ms total)
T1560 447:181 JLINK_WriteReg(R1, 0x00001000)  returns 0x00 (0000ms, 4896ms total)
T1560 447:181 JLINK_WriteReg(R2, 0x000000FF)  returns 0x00 (0000ms, 4896ms total)
T1560 447:181 JLINK_WriteReg(R3, 0x00000000)  returns 0x00 (0000ms, 4896ms total)
T1560 447:181 JLINK_WriteReg(R4, 0x00000000)  returns 0x00 (0000ms, 4896ms total)
T1560 447:181 JLINK_WriteReg(R5, 0x00000000)  returns 0x00 (0000ms, 4896ms total)
T1560 447:181 JLINK_WriteReg(R6, 0x00000000)  returns 0x00 (0000ms, 4896ms total)
T1560 447:181 JLINK_WriteReg(R7, 0x00000000)  returns 0x00 (0000ms, 4896ms total)
T1560 447:181 JLINK_WriteReg(R8, 0x00000000)  returns 0x00 (0000ms, 4896ms total)
T1560 447:181 JLINK_WriteReg(R9, 0x20000230)  returns 0x00 (0000ms, 4896ms total)
T1560 447:181 JLINK_WriteReg(R10, 0x00000000)  returns 0x00 (0000ms, 4896ms total)
T1560 447:181 JLINK_WriteReg(R11, 0x00000000)  returns 0x00 (0000ms, 4896ms total)
T1560 447:181 JLINK_WriteReg(R12, 0x00000000)  returns 0x00 (0000ms, 4896ms total)
T1560 447:181 JLINK_WriteReg(R13 (SP), 0x20002000)  returns 0x00 (0000ms, 4896ms total)
T1560 447:181 JLINK_WriteReg(R14, 0x20000001)  returns 0x00 (0000ms, 4896ms total)
T1560 447:181 JLINK_WriteReg(R15 (PC), 0x2000011A)  returns 0x00 (0000ms, 4896ms total)
T1560 447:181 JLINK_WriteReg(XPSR, 0x01000000)  returns 0x00 (0000ms, 4896ms total)
T1560 447:181 JLINK_WriteReg(MSP, 0x20002000)  returns 0x00 (0000ms, 4896ms total)
T1560 447:181 JLINK_WriteReg(PSP, 0x20002000)  returns 0x00 (0000ms, 4896ms total)
T1560 447:181 JLINK_WriteReg(CFBP, 0x00000000)  returns 0x00 (0000ms, 4896ms total)
T1560 447:181 JLINK_SetBPEx(Addr = 0x20000000, Type = 0xFFFFFFF2)  returns 0x00000004 (0000ms, 4896ms total)
T1560 447:181 JLINK_Go() -- CPU_ReadMem(4 bytes @ 0xE0001000) (0005ms, 4901ms total)
T1560 447:186 JLINK_IsHalted() -- CPU_ReadMem(2 bytes @ 0x20000000)  returns TRUE (0005ms, 4906ms total)
T1560 447:191 JLINK_ReadReg(R15 (PC))  returns 0x20000000 (0000ms, 4901ms total)
T1560 447:191 JLINK_ClrBPEx(BPHandle = 0x00000004)  returns 0x00 (0000ms, 4901ms total)
T1560 447:191 JLINK_ReadReg(R0)  returns 0x00000001 (0000ms, 4901ms total)
T1560 447:191 JLINK_WriteReg(R0, 0x00027000)  returns 0x00 (0000ms, 4901ms total)
T1560 447:191 JLINK_WriteReg(R1, 0x00001000)  returns 0x00 (0000ms, 4901ms total)
T1560 447:191 JLINK_WriteReg(R2, 0x000000FF)  returns 0x00 (0000ms, 4901ms total)
T1560 447:191 JLINK_WriteReg(R3, 0x00000000)  returns 0x00 (0000ms, 4901ms total)
T1560 447:191 JLINK_WriteReg(R4, 0x00000000)  returns 0x00 (0000ms, 4901ms total)
T1560 447:191 JLINK_WriteReg(R5, 0x00000000)  returns 0x00 (0000ms, 4901ms total)
T1560 447:191 JLINK_WriteReg(R6, 0x00000000)  returns 0x00 (0000ms, 4901ms total)
T1560 447:191 JLINK_WriteReg(R7, 0x00000000)  returns 0x00 (0001ms, 4902ms total)
T1560 447:192 JLINK_WriteReg(R8, 0x00000000)  returns 0x00 (0000ms, 4902ms total)
T1560 447:192 JLINK_WriteReg(R9, 0x20000230)  returns 0x00 (0000ms, 4902ms total)
T1560 447:192 JLINK_WriteReg(R10, 0x00000000)  returns 0x00 (0000ms, 4902ms total)
T1560 447:192 JLINK_WriteReg(R11, 0x00000000)  returns 0x00 (0000ms, 4902ms total)
T1560 447:192 JLINK_WriteReg(R12, 0x00000000)  returns 0x00 (0000ms, 4902ms total)
T1560 447:192 JLINK_WriteReg(R13 (SP), 0x20002000)  returns 0x00 (0000ms, 4902ms total)
T1560 447:192 JLINK_WriteReg(R14, 0x20000001)  returns 0x00 (0000ms, 4902ms total)
T1560 447:192 JLINK_WriteReg(R15 (PC), 0x200000D8)  returns 0x00 (0000ms, 4902ms total)
T1560 447:192 JLINK_WriteReg(XPSR, 0x01000000)  returns 0x00 (0000ms, 4902ms total)
T1560 447:192 JLINK_WriteReg(MSP, 0x20002000)  returns 0x00 (0000ms, 4902ms total)
T1560 447:192 JLINK_WriteReg(PSP, 0x20002000)  returns 0x00 (0000ms, 4902ms total)
T1560 447:192 JLINK_WriteReg(CFBP, 0x00000000)  returns 0x00 (0000ms, 4902ms total)
T1560 447:192 JLINK_SetBPEx(Addr = 0x20000000, Type = 0xFFFFFFF2)  returns 0x00000005 (0000ms, 4902ms total)
T1560 447:192 JLINK_Go() -- CPU_ReadMem(4 bytes @ 0xE0001000) (0004ms, 4906ms total)
T1560 447:197 JLINK_IsHalted()  returns FALSE (0001ms, 4908ms total)
T1560 447:199 JLINK_IsHalted() -- CPU_ReadMem(2 bytes @ 0x20000000)  returns TRUE (0005ms, 4912ms total)
T1560 447:204 JLINK_ReadReg(R15 (PC))  returns 0x20000000 (0000ms, 4907ms total)
T1560 447:204 JLINK_ClrBPEx(BPHandle = 0x00000005)  returns 0x00 (0000ms, 4907ms total)
T1560 447:204 JLINK_ReadReg(R0)  returns 0x00000000 (0000ms, 4907ms total)
T1560 447:205 JLINK_WriteReg(R0, 0x00028000)  returns 0x00 (0000ms, 4907ms total)
T1560 447:205 JLINK_WriteReg(R1, 0x00001000)  returns 0x00 (0000ms, 4907ms total)
T1560 447:205 JLINK_WriteReg(R2, 0x000000FF)  returns 0x00 (0000ms, 4907ms total)
T1560 447:205 JLINK_WriteReg(R3, 0x00000000)  returns 0x00 (0000ms, 4907ms total)
T1560 447:205 JLINK_WriteReg(R4, 0x00000000)  returns 0x00 (0000ms, 4907ms total)
T1560 447:205 JLINK_WriteReg(R5, 0x00000000)  returns 0x00 (0000ms, 4907ms total)
T1560 447:205 JLINK_WriteReg(R6, 0x00000000)  returns 0x00 (0000ms, 4907ms total)
T1560 447:205 JLINK_WriteReg(R7, 0x00000000)  returns 0x00 (0000ms, 4907ms total)
T1560 447:205 JLINK_WriteReg(R8, 0x00000000)  returns 0x00 (0000ms, 4907ms total)
T1560 447:205 JLINK_WriteReg(R9, 0x20000230)  returns 0x00 (0001ms, 4908ms total)
T1560 447:206 JLINK_WriteReg(R10, 0x00000000)  returns 0x00 (0000ms, 4908ms total)
T1560 447:206 JLINK_WriteReg(R11, 0x00000000)  returns 0x00 (0000ms, 4908ms total)
T1560 447:206 JLINK_WriteReg(R12, 0x00000000)  returns 0x00 (0000ms, 4908ms total)
T1560 447:206 JLINK_WriteReg(R13 (SP), 0x20002000)  returns 0x00 (0000ms, 4908ms total)
T1560 447:206 JLINK_WriteReg(R14, 0x20000001)  returns 0x00 (0000ms, 4908ms total)
T1560 447:206 JLINK_WriteReg(R15 (PC), 0x2000011A)  returns 0x00 (0000ms, 4908ms total)
T1560 447:206 JLINK_WriteReg(XPSR, 0x01000000)  returns 0x00 (0000ms, 4908ms total)
T1560 447:206 JLINK_WriteReg(MSP, 0x20002000)  returns 0x00 (0000ms, 4908ms total)
T1560 447:206 JLINK_WriteReg(PSP, 0x20002000)  returns 0x00 (0000ms, 4908ms total)
T1560 447:206 JLINK_WriteReg(CFBP, 0x00000000)  returns 0x00 (0000ms, 4908ms total)
T1560 447:206 JLINK_SetBPEx(Addr = 0x20000000, Type = 0xFFFFFFF2)  returns 0x00000006 (0000ms, 4908ms total)
T1560 447:206 JLINK_Go() -- CPU_ReadMem(4 bytes @ 0xE0001000) (0006ms, 4914ms total)
T1560 447:212 JLINK_IsHalted() -- CPU_ReadMem(2 bytes @ 0x20000000)  returns TRUE (0005ms, 4919ms total)
T1560 447:217 JLINK_ReadReg(R15 (PC))  returns 0x20000000 (0000ms, 4914ms total)
T1560 447:217 JLINK_ClrBPEx(BPHandle = 0x00000006)  returns 0x00 (0000ms, 4914ms total)
T1560 447:217 JLINK_ReadReg(R0)  returns 0x00000001 (0000ms, 4914ms total)
T1560 447:217 JLINK_WriteReg(R0, 0x00028000)  returns 0x00 (0000ms, 4914ms total)
T1560 447:217 JLINK_WriteReg(R1, 0x00001000)  returns 0x00 (0000ms, 4914ms total)
T1560 447:217 JLINK_WriteReg(R2, 0x000000FF)  returns 0x00 (0000ms, 4914ms total)
T1560 447:217 JLINK_WriteReg(R3, 0x00000000)  returns 0x00 (0000ms, 4914ms total)
T1560 447:217 JLINK_WriteReg(R4, 0x00000000)  returns 0x00 (0000ms, 4914ms total)
T1560 447:217 JLINK_WriteReg(R5, 0x00000000)  returns 0x00 (0000ms, 4914ms total)
T1560 447:217 JLINK_WriteReg(R6, 0x00000000)  returns 0x00 (0000ms, 4914ms total)
T1560 447:217 JLINK_WriteReg(R7, 0x00000000)  returns 0x00 (0000ms, 4914ms total)
T1560 447:217 JLINK_WriteReg(R8, 0x00000000)  returns 0x00 (0000ms, 4914ms total)
T1560 447:217 JLINK_WriteReg(R9, 0x20000230)  returns 0x00 (0000ms, 4914ms total)
T1560 447:217 JLINK_WriteReg(R10, 0x00000000)  returns 0x00 (0000ms, 4914ms total)
T1560 447:217 JLINK_WriteReg(R11, 0x00000000)  returns 0x00 (0000ms, 4914ms total)
T1560 447:217 JLINK_WriteReg(R12, 0x00000000)  returns 0x00 (0000ms, 4914ms total)
T1560 447:218 JLINK_WriteReg(R13 (SP), 0x20002000)  returns 0x00 (0000ms, 4915ms total)
T1560 447:218 JLINK_WriteReg(R14, 0x20000001)  returns 0x00 (0000ms, 4915ms total)
T1560 447:218 JLINK_WriteReg(R15 (PC), 0x200000D8)  returns 0x00 (0000ms, 4915ms total)
T1560 447:218 JLINK_WriteReg(XPSR, 0x01000000)  returns 0x00 (0000ms, 4915ms total)
T1560 447:218 JLINK_WriteReg(MSP, 0x20002000)  returns 0x00 (0000ms, 4915ms total)
T1560 447:218 JLINK_WriteReg(PSP, 0x20002000)  returns 0x00 (0000ms, 4915ms total)
T1560 447:218 JLINK_WriteReg(CFBP, 0x00000000)  returns 0x00 (0000ms, 4915ms total)
T1560 447:218 JLINK_SetBPEx(Addr = 0x20000000, Type = 0xFFFFFFF2)  returns 0x00000007 (0000ms, 4915ms total)
T1560 447:218 JLINK_Go() -- CPU_ReadMem(4 bytes @ 0xE0001000) (0003ms, 4918ms total)
T1560 447:221 JLINK_IsHalted()  returns FALSE (0001ms, 4919ms total)
T1560 447:229 JLINK_IsHalted() -- CPU_ReadMem(2 bytes @ 0x20000000)  returns TRUE (0005ms, 4923ms total)
T1560 447:234 JLINK_ReadReg(R15 (PC))  returns 0x20000000 (0000ms, 4918ms total)
T1560 447:234 JLINK_ClrBPEx(BPHandle = 0x00000007)  returns 0x00 (0000ms, 4918ms total)
T1560 447:234 JLINK_ReadReg(R0)  returns 0x00000000 (0000ms, 4918ms total)
T1560 447:235 JLINK_WriteReg(R0, 0x00029000)  returns 0x00 (0000ms, 4918ms total)
T1560 447:235 JLINK_WriteReg(R1, 0x00001000)  returns 0x00 (0000ms, 4918ms total)
T1560 447:236 JLINK_WriteReg(R2, 0x000000FF)  returns 0x00 (0000ms, 4919ms total)
T1560 447:236 JLINK_WriteReg(R3, 0x00000000)  returns 0x00 (0000ms, 4919ms total)
T1560 447:236 JLINK_WriteReg(R4, 0x00000000)  returns 0x00 (0000ms, 4919ms total)
T1560 447:236 JLINK_WriteReg(R5, 0x00000000)  returns 0x00 (0000ms, 4919ms total)
T1560 447:236 JLINK_WriteReg(R6, 0x00000000)  returns 0x00 (0000ms, 4919ms total)
T1560 447:236 JLINK_WriteReg(R7, 0x00000000)  returns 0x00 (0000ms, 4919ms total)
T1560 447:236 JLINK_WriteReg(R8, 0x00000000)  returns 0x00 (0000ms, 4919ms total)
T1560 447:236 JLINK_WriteReg(R9, 0x20000230)  returns 0x00 (0000ms, 4919ms total)
T1560 447:236 JLINK_WriteReg(R10, 0x00000000)  returns 0x00 (0000ms, 4919ms total)
T1560 447:236 JLINK_WriteReg(R11, 0x00000000)  returns 0x00 (0000ms, 4919ms total)
T1560 447:236 JLINK_WriteReg(R12, 0x00000000)  returns 0x00 (0000ms, 4919ms total)
T1560 447:236 JLINK_WriteReg(R13 (SP), 0x20002000)  returns 0x00 (0000ms, 4919ms total)
T1560 447:236 JLINK_WriteReg(R14, 0x20000001)  returns 0x00 (0000ms, 4919ms total)
T1560 447:236 JLINK_WriteReg(R15 (PC), 0x2000011A)  returns 0x00 (0000ms, 4919ms total)
T1560 447:236 JLINK_WriteReg(XPSR, 0x01000000)  returns 0x00 (0000ms, 4919ms total)
T1560 447:236 JLINK_WriteReg(MSP, 0x20002000)  returns 0x00 (0000ms, 4919ms total)
T1560 447:236 JLINK_WriteReg(PSP, 0x20002000)  returns 0x00 (0000ms, 4919ms total)
T1560 447:236 JLINK_WriteReg(CFBP, 0x00000000)  returns 0x00 (0000ms, 4919ms total)
T1560 447:236 JLINK_SetBPEx(Addr = 0x20000000, Type = 0xFFFFFFF2)  returns 0x00000008 (0000ms, 4919ms total)
T1560 447:236 JLINK_Go() -- CPU_ReadMem(4 bytes @ 0xE0001000) (0005ms, 4924ms total)
T1560 447:241 JLINK_IsHalted() -- CPU_ReadMem(2 bytes @ 0x20000000)  returns TRUE (0005ms, 4929ms total)
T1560 447:246 JLINK_ReadReg(R15 (PC))  returns 0x20000000 (0000ms, 4924ms total)
T1560 447:246 JLINK_ClrBPEx(BPHandle = 0x00000008)  returns 0x00 (0000ms, 4924ms total)
T1560 447:246 JLINK_ReadReg(R0)  returns 0x00000001 (0000ms, 4924ms total)
T1560 447:246 JLINK_WriteReg(R0, 0x00029000)  returns 0x00 (0000ms, 4924ms total)
T1560 447:246 JLINK_WriteReg(R1, 0x00001000)  returns 0x00 (0000ms, 4924ms total)
T1560 447:246 JLINK_WriteReg(R2, 0x000000FF)  returns 0x00 (0000ms, 4924ms total)
T1560 447:246 JLINK_WriteReg(R3, 0x00000000)  returns 0x00 (0000ms, 4924ms total)
T1560 447:246 JLINK_WriteReg(R4, 0x00000000)  returns 0x00 (0000ms, 4924ms total)
T1560 447:246 JLINK_WriteReg(R5, 0x00000000)  returns 0x00 (0000ms, 4924ms total)
T1560 447:246 JLINK_WriteReg(R6, 0x00000000)  returns 0x00 (0000ms, 4924ms total)
T1560 447:246 JLINK_WriteReg(R7, 0x00000000)  returns 0x00 (0000ms, 4924ms total)
T1560 447:246 JLINK_WriteReg(R8, 0x00000000)  returns 0x00 (0000ms, 4924ms total)
T1560 447:246 JLINK_WriteReg(R9, 0x20000230)  returns 0x00 (0000ms, 4924ms total)
T1560 447:246 JLINK_WriteReg(R10, 0x00000000)  returns 0x00 (0000ms, 4924ms total)
T1560 447:246 JLINK_WriteReg(R11, 0x00000000)  returns 0x00 (0000ms, 4924ms total)
T1560 447:246 JLINK_WriteReg(R12, 0x00000000)  returns 0x00 (0000ms, 4924ms total)
T1560 447:247 JLINK_WriteReg(R13 (SP), 0x20002000)  returns 0x00 (0000ms, 4924ms total)
T1560 447:247 JLINK_WriteReg(R14, 0x20000001)  returns 0x00 (0000ms, 4924ms total)
T1560 447:247 JLINK_WriteReg(R15 (PC), 0x200000D8)  returns 0x00 (0000ms, 4924ms total)
T1560 447:247 JLINK_WriteReg(XPSR, 0x01000000)  returns 0x00 (0000ms, 4924ms total)
T1560 447:247 JLINK_WriteReg(MSP, 0x20002000)  returns 0x00 (0000ms, 4924ms total)
T1560 447:247 JLINK_WriteReg(PSP, 0x20002000)  returns 0x00 (0000ms, 4924ms total)
T1560 447:247 JLINK_WriteReg(CFBP, 0x00000000)  returns 0x00 (0000ms, 4924ms total)
T1560 447:247 JLINK_SetBPEx(Addr = 0x20000000, Type = 0xFFFFFFF2)  returns 0x00000009 (0000ms, 4924ms total)
T1560 447:247 JLINK_Go() -- CPU_ReadMem(4 bytes @ 0xE0001000) (0004ms, 4928ms total)
T1560 447:251 JLINK_IsHalted()  returns FALSE (0001ms, 4929ms total)
T1560 447:255 JLINK_IsHalted() -- CPU_ReadMem(2 bytes @ 0x20000000)  returns TRUE (0005ms, 4933ms total)
T1560 447:260 JLINK_ReadReg(R15 (PC))  returns 0x20000000 (0000ms, 4928ms total)
T1560 447:260 JLINK_ClrBPEx(BPHandle = 0x00000009)  returns 0x00 (0000ms, 4928ms total)
T1560 447:260 JLINK_ReadReg(R0)  returns 0x00000000 (0000ms, 4928ms total)
T1560 447:263 JLINK_WriteReg(R0, 0x0002A000)  returns 0x00 (0000ms, 4928ms total)
T1560 447:263 JLINK_WriteReg(R1, 0x00001000)  returns 0x00 (0000ms, 4928ms total)
T1560 447:263 JLINK_WriteReg(R2, 0x000000FF)  returns 0x00 (0000ms, 4928ms total)
T1560 447:263 JLINK_WriteReg(R3, 0x00000000)  returns 0x00 (0000ms, 4928ms total)
T1560 447:263 JLINK_WriteReg(R4, 0x00000000)  returns 0x00 (0000ms, 4928ms total)
T1560 447:263 JLINK_WriteReg(R5, 0x00000000)  returns 0x00 (0000ms, 4928ms total)
T1560 447:263 JLINK_WriteReg(R6, 0x00000000)  returns 0x00 (0000ms, 4928ms total)
T1560 447:263 JLINK_WriteReg(R7, 0x00000000)  returns 0x00 (0000ms, 4928ms total)
T1560 447:263 JLINK_WriteReg(R8, 0x00000000)  returns 0x00 (0000ms, 4928ms total)
T1560 447:263 JLINK_WriteReg(R9, 0x20000230)  returns 0x00 (0000ms, 4928ms total)
T1560 447:263 JLINK_WriteReg(R10, 0x00000000)  returns 0x00 (0000ms, 4928ms total)
T1560 447:263 JLINK_WriteReg(R11, 0x00000000)  returns 0x00 (0000ms, 4928ms total)
T1560 447:263 JLINK_WriteReg(R12, 0x00000000)  returns 0x00 (0000ms, 4928ms total)
T1560 447:263 JLINK_WriteReg(R13 (SP), 0x20002000)  returns 0x00 (0000ms, 4928ms total)
T1560 447:263 JLINK_WriteReg(R14, 0x20000001)  returns 0x00 (0000ms, 4928ms total)
T1560 447:263 JLINK_WriteReg(R15 (PC), 0x2000011A)  returns 0x00 (0000ms, 4928ms total)
T1560 447:263 JLINK_WriteReg(XPSR, 0x01000000)  returns 0x00 (0000ms, 4928ms total)
T1560 447:263 JLINK_WriteReg(MSP, 0x20002000)  returns 0x00 (0000ms, 4928ms total)
T1560 447:263 JLINK_WriteReg(PSP, 0x20002000)  returns 0x00 (0000ms, 4928ms total)
T1560 447:263 JLINK_WriteReg(CFBP, 0x00000000)  returns 0x00 (0000ms, 4928ms total)
T1560 447:263 JLINK_SetBPEx(Addr = 0x20000000, Type = 0xFFFFFFF2)  returns 0x0000000A (0000ms, 4928ms total)
T1560 447:263 JLINK_Go() -- CPU_ReadMem(4 bytes @ 0xE0001000) (0005ms, 4933ms total)
T1560 447:268 JLINK_IsHalted() -- CPU_ReadMem(2 bytes @ 0x20000000)  returns TRUE (0005ms, 4938ms total)
T1560 447:273 JLINK_ReadReg(R15 (PC))  returns 0x20000000 (0000ms, 4933ms total)
T1560 447:273 JLINK_ClrBPEx(BPHandle = 0x0000000A)  returns 0x00 (0000ms, 4933ms total)
T1560 447:273 JLINK_ReadReg(R0)  returns 0x00000001 (0000ms, 4933ms total)
T1560 447:273 JLINK_WriteReg(R0, 0x0002A000)  returns 0x00 (0000ms, 4933ms total)
T1560 447:273 JLINK_WriteReg(R1, 0x00001000)  returns 0x00 (0000ms, 4933ms total)
T1560 447:273 JLINK_WriteReg(R2, 0x000000FF)  returns 0x00 (0000ms, 4933ms total)
T1560 447:273 JLINK_WriteReg(R3, 0x00000000)  returns 0x00 (0000ms, 4933ms total)
T1560 447:273 JLINK_WriteReg(R4, 0x00000000)  returns 0x00 (0000ms, 4933ms total)
T1560 447:273 JLINK_WriteReg(R5, 0x00000000)  returns 0x00 (0000ms, 4933ms total)
T1560 447:274 JLINK_WriteReg(R6, 0x00000000)  returns 0x00 (0000ms, 4934ms total)
T1560 447:274 JLINK_WriteReg(R7, 0x00000000)  returns 0x00 (0000ms, 4934ms total)
T1560 447:274 JLINK_WriteReg(R8, 0x00000000)  returns 0x00 (0000ms, 4934ms total)
T1560 447:274 JLINK_WriteReg(R9, 0x20000230)  returns 0x00 (0000ms, 4934ms total)
T1560 447:274 JLINK_WriteReg(R10, 0x00000000)  returns 0x00 (0000ms, 4934ms total)
T1560 447:274 JLINK_WriteReg(R11, 0x00000000)  returns 0x00 (0000ms, 4934ms total)
T1560 447:274 JLINK_WriteReg(R12, 0x00000000)  returns 0x00 (0000ms, 4934ms total)
T1560 447:274 JLINK_WriteReg(R13 (SP), 0x20002000)  returns 0x00 (0000ms, 4934ms total)
T1560 447:274 JLINK_WriteReg(R14, 0x20000001)  returns 0x00 (0000ms, 4934ms total)
T1560 447:274 JLINK_WriteReg(R15 (PC), 0x200000D8)  returns 0x00 (0000ms, 4934ms total)
T1560 447:274 JLINK_WriteReg(XPSR, 0x01000000)  returns 0x00 (0000ms, 4934ms total)
T1560 447:274 JLINK_WriteReg(MSP, 0x20002000)  returns 0x00 (0000ms, 4934ms total)
T1560 447:274 JLINK_WriteReg(PSP, 0x20002000)  returns 0x00 (0000ms, 4934ms total)
T1560 447:274 JLINK_WriteReg(CFBP, 0x00000000)  returns 0x00 (0000ms, 4934ms total)
T1560 447:274 JLINK_SetBPEx(Addr = 0x20000000, Type = 0xFFFFFFF2)  returns 0x0000000B (0000ms, 4934ms total)
T1560 447:274 JLINK_Go() -- CPU_ReadMem(4 bytes @ 0xE0001000) (0004ms, 4938ms total)
T1560 447:278 JLINK_IsHalted()  returns FALSE (0001ms, 4939ms total)
T1560 447:280 JLINK_IsHalted() -- CPU_ReadMem(2 bytes @ 0x20000000)  returns TRUE (0005ms, 4943ms total)
T1560 447:285 JLINK_ReadReg(R15 (PC))  returns 0x20000000 (0000ms, 4938ms total)
T1560 447:285 JLINK_ClrBPEx(BPHandle = 0x0000000B)  returns 0x00 (0000ms, 4938ms total)
T1560 447:285 JLINK_ReadReg(R0)  returns 0x00000000 (0000ms, 4938ms total)
T1560 447:286 JLINK_WriteReg(R0, 0x0002B000)  returns 0x00 (0000ms, 4938ms total)
T1560 447:286 JLINK_WriteReg(R1, 0x00001000)  returns 0x00 (0000ms, 4938ms total)
T1560 447:286 JLINK_WriteReg(R2, 0x000000FF)  returns 0x00 (0000ms, 4938ms total)
T1560 447:286 JLINK_WriteReg(R3, 0x00000000)  returns 0x00 (0000ms, 4938ms total)
T1560 447:286 JLINK_WriteReg(R4, 0x00000000)  returns 0x00 (0000ms, 4938ms total)
T1560 447:286 JLINK_WriteReg(R5, 0x00000000)  returns 0x00 (0000ms, 4938ms total)
T1560 447:286 JLINK_WriteReg(R6, 0x00000000)  returns 0x00 (0000ms, 4938ms total)
T1560 447:286 JLINK_WriteReg(R7, 0x00000000)  returns 0x00 (0000ms, 4938ms total)
T1560 447:286 JLINK_WriteReg(R8, 0x00000000)  returns 0x00 (0001ms, 4939ms total)
T1560 447:287 JLINK_WriteReg(R9, 0x20000230)  returns 0x00 (0000ms, 4939ms total)
T1560 447:287 JLINK_WriteReg(R10, 0x00000000)  returns 0x00 (0000ms, 4939ms total)
T1560 447:287 JLINK_WriteReg(R11, 0x00000000)  returns 0x00 (0000ms, 4939ms total)
T1560 447:287 JLINK_WriteReg(R12, 0x00000000)  returns 0x00 (0000ms, 4939ms total)
T1560 447:287 JLINK_WriteReg(R13 (SP), 0x20002000)  returns 0x00 (0000ms, 4939ms total)
T1560 447:287 JLINK_WriteReg(R14, 0x20000001)  returns 0x00 (0000ms, 4939ms total)
T1560 447:287 JLINK_WriteReg(R15 (PC), 0x2000011A)  returns 0x00 (0000ms, 4939ms total)
T1560 447:287 JLINK_WriteReg(XPSR, 0x01000000)  returns 0x00 (0000ms, 4939ms total)
T1560 447:287 JLINK_WriteReg(MSP, 0x20002000)  returns 0x00 (0000ms, 4939ms total)
T1560 447:287 JLINK_WriteReg(PSP, 0x20002000)  returns 0x00 (0000ms, 4939ms total)
T1560 447:287 JLINK_WriteReg(CFBP, 0x00000000)  returns 0x00 (0000ms, 4939ms total)
T1560 447:287 JLINK_SetBPEx(Addr = 0x20000000, Type = 0xFFFFFFF2)  returns 0x0000000C (0000ms, 4939ms total)
T1560 447:287 JLINK_Go() -- CPU_ReadMem(4 bytes @ 0xE0001000) (0004ms, 4943ms total)
T1560 447:292 JLINK_IsHalted() -- CPU_ReadMem(2 bytes @ 0x20000000)  returns TRUE (0005ms, 4949ms total)
T1560 447:297 JLINK_ReadReg(R15 (PC))  returns 0x20000000 (0000ms, 4944ms total)
T1560 447:297 JLINK_ClrBPEx(BPHandle = 0x0000000C)  returns 0x00 (0000ms, 4944ms total)
T1560 447:297 JLINK_ReadReg(R0)  returns 0x00000001 (0000ms, 4944ms total)
T1560 447:297 JLINK_WriteReg(R0, 0x0002B000)  returns 0x00 (0000ms, 4944ms total)
T1560 447:297 JLINK_WriteReg(R1, 0x00001000)  returns 0x00 (0000ms, 4944ms total)
T1560 447:297 JLINK_WriteReg(R2, 0x000000FF)  returns 0x00 (0000ms, 4944ms total)
T1560 447:297 JLINK_WriteReg(R3, 0x00000000)  returns 0x00 (0000ms, 4944ms total)
T1560 447:297 JLINK_WriteReg(R4, 0x00000000)  returns 0x00 (0000ms, 4944ms total)
T1560 447:297 JLINK_WriteReg(R5, 0x00000000)  returns 0x00 (0000ms, 4944ms total)
T1560 447:297 JLINK_WriteReg(R6, 0x00000000)  returns 0x00 (0000ms, 4944ms total)
T1560 447:297 JLINK_WriteReg(R7, 0x00000000)  returns 0x00 (0000ms, 4944ms total)
T1560 447:297 JLINK_WriteReg(R8, 0x00000000)  returns 0x00 (0000ms, 4944ms total)
T1560 447:297 JLINK_WriteReg(R9, 0x20000230)  returns 0x00 (0000ms, 4944ms total)
T1560 447:297 JLINK_WriteReg(R10, 0x00000000)  returns 0x00 (0000ms, 4944ms total)
T1560 447:297 JLINK_WriteReg(R11, 0x00000000)  returns 0x00 (0000ms, 4944ms total)
T1560 447:297 JLINK_WriteReg(R12, 0x00000000)  returns 0x00 (0000ms, 4944ms total)
T1560 447:297 JLINK_WriteReg(R13 (SP), 0x20002000)  returns 0x00 (0000ms, 4944ms total)
T1560 447:297 JLINK_WriteReg(R14, 0x20000001)  returns 0x00 (0000ms, 4944ms total)
T1560 447:297 JLINK_WriteReg(R15 (PC), 0x200000D8)  returns 0x00 (0000ms, 4944ms total)
T1560 447:297 JLINK_WriteReg(XPSR, 0x01000000)  returns 0x00 (0000ms, 4944ms total)
T1560 447:297 JLINK_WriteReg(MSP, 0x20002000)  returns 0x00 (0000ms, 4944ms total)
T1560 447:297 JLINK_WriteReg(PSP, 0x20002000)  returns 0x00 (0000ms, 4944ms total)
T1560 447:297 JLINK_WriteReg(CFBP, 0x00000000)  returns 0x00 (0000ms, 4944ms total)
T1560 447:298 JLINK_SetBPEx(Addr = 0x20000000, Type = 0xFFFFFFF2)  returns 0x0000000D (0000ms, 4945ms total)
T1560 447:298 JLINK_Go() -- CPU_ReadMem(4 bytes @ 0xE0001000) (0003ms, 4948ms total)
T1560 447:301 JLINK_IsHalted()  returns FALSE (0001ms, 4949ms total)
T1560 447:303 JLINK_IsHalted() -- CPU_ReadMem(2 bytes @ 0x20000000)  returns TRUE (0005ms, 4953ms total)
T1560 447:308 JLINK_ReadReg(R15 (PC))  returns 0x20000000 (0000ms, 4948ms total)
T1560 447:308 JLINK_ClrBPEx(BPHandle = 0x0000000D)  returns 0x00 (0000ms, 4948ms total)
T1560 447:308 JLINK_ReadReg(R0)  returns 0x00000000 (0000ms, 4948ms total)
T1560 447:309 JLINK_WriteReg(R0, 0x00000001)  returns 0x00 (0000ms, 4948ms total)
T1560 447:309 JLINK_WriteReg(R1, 0x00001000)  returns 0x00 (0000ms, 4948ms total)
T1560 447:309 JLINK_WriteReg(R2, 0x000000FF)  returns 0x00 (0000ms, 4948ms total)
T1560 447:309 JLINK_WriteReg(R3, 0x00000000)  returns 0x00 (0000ms, 4948ms total)
T1560 447:309 JLINK_WriteReg(R4, 0x00000000)  returns 0x00 (0000ms, 4948ms total)
T1560 447:309 JLINK_WriteReg(R5, 0x00000000)  returns 0x00 (0000ms, 4948ms total)
T1560 447:309 JLINK_WriteReg(R6, 0x00000000)  returns 0x00 (0000ms, 4948ms total)
T1560 447:309 JLINK_WriteReg(R7, 0x00000000)  returns 0x00 (0000ms, 4948ms total)
T1560 447:309 JLINK_WriteReg(R8, 0x00000000)  returns 0x00 (0000ms, 4948ms total)
T1560 447:309 JLINK_WriteReg(R9, 0x20000230)  returns 0x00 (0000ms, 4948ms total)
T1560 447:309 JLINK_WriteReg(R10, 0x00000000)  returns 0x00 (0000ms, 4948ms total)
T1560 447:309 JLINK_WriteReg(R11, 0x00000000)  returns 0x00 (0000ms, 4948ms total)
T1560 447:309 JLINK_WriteReg(R12, 0x00000000)  returns 0x00 (0000ms, 4948ms total)
T1560 447:309 JLINK_WriteReg(R13 (SP), 0x20002000)  returns 0x00 (0000ms, 4948ms total)
T1560 447:310 JLINK_WriteReg(R14, 0x20000001)  returns 0x00 (0000ms, 4948ms total)
T1560 447:310 JLINK_WriteReg(R15 (PC), 0x2000008E)  returns 0x00 (0000ms, 4948ms total)
T1560 447:310 JLINK_WriteReg(XPSR, 0x01000000)  returns 0x00 (0000ms, 4948ms total)
T1560 447:310 JLINK_WriteReg(MSP, 0x20002000)  returns 0x00 (0000ms, 4948ms total)
T1560 447:310 JLINK_WriteReg(PSP, 0x20002000)  returns 0x00 (0000ms, 4948ms total)
T1560 447:310 JLINK_WriteReg(CFBP, 0x00000000)  returns 0x00 (0000ms, 4948ms total)
T1560 447:310 JLINK_SetBPEx(Addr = 0x20000000, Type = 0xFFFFFFF2)  returns 0x0000000E (0000ms, 4948ms total)
T1560 447:310 JLINK_Go() -- CPU_ReadMem(4 bytes @ 0xE0001000) (0004ms, 4952ms total)
T1560 447:314 JLINK_IsHalted() -- CPU_ReadMem(2 bytes @ 0x20000000)  returns TRUE (0005ms, 4957ms total)
T1560 447:319 JLINK_ReadReg(R15 (PC))  returns 0x20000000 (0000ms, 4952ms total)
T1560 447:319 JLINK_ClrBPEx(BPHandle = 0x0000000E)  returns 0x00 (0000ms, 4952ms total)
T1560 447:319 JLINK_ReadReg(R0)  returns 0x00000000 (0000ms, 4952ms total)
T1560 447:380 JLINK_WriteMem(0x20000000, 0x0234 Bytes, ...) - Data: 00 BE 0A E0 0D 78 2D 06 68 40 08 24 40 00 00 D3 ... -- CPU_WriteMem(564 bytes @ 0x20000000)  returns 0x234 (0008ms, 4960ms total)
T1560 447:388 JLINK_WriteReg(R0, 0x00000000)  returns 0x00 (0000ms, 4960ms total)
T1560 447:388 JLINK_WriteReg(R1, 0x03D09000)  returns 0x00 (0000ms, 4960ms total)
T1560 447:388 JLINK_WriteReg(R2, 0x00000002)  returns 0x00 (0000ms, 4960ms total)
T1560 447:388 JLINK_WriteReg(R3, 0x00000000)  returns 0x00 (0000ms, 4960ms total)
T1560 447:388 JLINK_WriteReg(R4, 0x00000000)  returns 0x00 (0000ms, 4960ms total)
T1560 447:388 JLINK_WriteReg(R5, 0x00000000)  returns 0x00 (0000ms, 4960ms total)
T1560 447:388 JLINK_WriteReg(R6, 0x00000000)  returns 0x00 (0000ms, 4960ms total)
T1560 447:388 JLINK_WriteReg(R7, 0x00000000)  returns 0x00 (0000ms, 4960ms total)
T1560 447:388 JLINK_WriteReg(R8, 0x00000000)  returns 0x00 (0000ms, 4960ms total)
T1560 447:388 JLINK_WriteReg(R9, 0x20000230)  returns 0x00 (0000ms, 4960ms total)
T1560 447:388 JLINK_WriteReg(R10, 0x00000000)  returns 0x00 (0000ms, 4960ms total)
T1560 447:388 JLINK_WriteReg(R11, 0x00000000)  returns 0x00 (0000ms, 4960ms total)
T1560 447:388 JLINK_WriteReg(R12, 0x00000000)  returns 0x00 (0000ms, 4960ms total)
T1560 447:388 JLINK_WriteReg(R13 (SP), 0x20002000)  returns 0x00 (0000ms, 4960ms total)
T1560 447:388 JLINK_WriteReg(R14, 0x20000001)  returns 0x00 (0000ms, 4960ms total)
T1560 447:388 JLINK_WriteReg(R15 (PC), 0x2000003C)  returns 0x00 (0000ms, 4960ms total)
T1560 447:388 JLINK_WriteReg(XPSR, 0x01000000)  returns 0x00 (0000ms, 4960ms total)
T1560 447:388 JLINK_WriteReg(MSP, 0x20002000)  returns 0x00 (0000ms, 4960ms total)
T1560 447:388 JLINK_WriteReg(PSP, 0x20002000)  returns 0x00 (0000ms, 4960ms total)
T1560 447:388 JLINK_WriteReg(CFBP, 0x00000000)  returns 0x00 (0000ms, 4960ms total)
T1560 447:389 JLINK_SetBPEx(Addr = 0x20000000, Type = 0xFFFFFFF2) -- CPU_ReadMem(2 bytes @ 0x20000000)  returns 0x0000000F (0001ms, 4962ms total)
T1560 447:390 JLINK_Go() -- CPU_WriteMem(2 bytes @ 0x20000000) -- CPU_ReadMem(4 bytes @ 0xE0001000) (0005ms, 4967ms total)
T1560 447:395 JLINK_IsHalted() -- CPU_ReadMem(2 bytes @ 0x20000000)  returns TRUE (0005ms, 4972ms total)
T1560 447:400 JLINK_ReadReg(R15 (PC))  returns 0x20000000 (0000ms, 4967ms total)
T1560 447:400 JLINK_ClrBPEx(BPHandle = 0x0000000F)  returns 0x00 (0000ms, 4967ms total)
T1560 447:400 JLINK_ReadReg(R0)  returns 0x00000000 (0000ms, 4967ms total)
T1560 447:401 JLINK_WriteMem(0x20000234, 0x01CC Bytes, ...) - Data: E0 64 00 20 F9 62 02 00 01 63 02 00 03 63 02 00 ... -- CPU_WriteMem(460 bytes @ 0x20000234)  returns 0x1CC (0006ms, 4973ms total)
T1560 447:407 JLINK_WriteMem(0x20000400, 0x0400 Bytes, ...) - Data: 00 00 00 00 00 00 00 00 00 00 00 00 00 00 00 00 ... -- CPU_WriteMem(1024 bytes @ 0x20000400)  returns 0x400 (0013ms, 4986ms total)
T1560 447:420 JLINK_WriteMem(0x20000800, 0x0400 Bytes, ...) - Data: 12 E0 BA F1 03 0F 0F D1 B9 F1 03 0F 08 D1 BA F1 ... -- CPU_WriteMem(1024 bytes @ 0x20000800)  returns 0x400 (0013ms, 4999ms total)
T1560 447:433 JLINK_WriteMem(0x20000C00, 0x0400 Bytes, ...) - Data: 04 D1 2B 48 01 68 41 F4 80 61 01 60 22 48 74 38 ... -- CPU_WriteMem(1024 bytes @ 0x20000C00)  returns 0x400 (0013ms, 5012ms total)
T1560 447:446 JLINK_WriteMem(0x20001000, 0x0234 Bytes, ...) - Data: 65 6D 20 72 65 73 65 74 00 00 00 00 04 00 FA 05 ... -- CPU_WriteMem(564 bytes @ 0x20001000)  returns 0x234 (0007ms, 5019ms total)
T1560 447:453 JLINK_WriteReg(R0, 0x00026000)  returns 0x00 (0000ms, 5019ms total)
T1560 447:453 JLINK_WriteReg(R1, 0x00001000)  returns 0x00 (0000ms, 5019ms total)
T1560 447:453 JLINK_WriteReg(R2, 0x20000234)  returns 0x00 (0000ms, 5019ms total)
T1560 447:453 JLINK_WriteReg(R3, 0x00000000)  returns 0x00 (0000ms, 5019ms total)
T1560 447:453 JLINK_WriteReg(R4, 0x00000000)  returns 0x00 (0000ms, 5019ms total)
T1560 447:453 JLINK_WriteReg(R5, 0x00000000)  returns 0x00 (0000ms, 5019ms total)
T1560 447:453 JLINK_WriteReg(R6, 0x00000000)  returns 0x00 (0000ms, 5019ms total)
T1560 447:453 JLINK_WriteReg(R7, 0x00000000)  returns 0x00 (0000ms, 5019ms total)
T1560 447:453 JLINK_WriteReg(R8, 0x00000000)  returns 0x00 (0001ms, 5020ms total)
T1560 447:454 JLINK_WriteReg(R9, 0x20000230)  returns 0x00 (0000ms, 5020ms total)
T1560 447:454 JLINK_WriteReg(R10, 0x00000000)  returns 0x00 (0000ms, 5020ms total)
T1560 447:454 JLINK_WriteReg(R11, 0x00000000)  returns 0x00 (0000ms, 5020ms total)
T1560 447:454 JLINK_WriteReg(R12, 0x00000000)  returns 0x00 (0000ms, 5020ms total)
T1560 447:454 JLINK_WriteReg(R13 (SP), 0x20002000)  returns 0x00 (0000ms, 5020ms total)
T1560 447:454 JLINK_WriteReg(R14, 0x20000001)  returns 0x00 (0000ms, 5020ms total)
T1560 447:454 JLINK_WriteReg(R15 (PC), 0x20000156)  returns 0x00 (0000ms, 5020ms total)
T1560 447:454 JLINK_WriteReg(XPSR, 0x01000000)  returns 0x00 (0000ms, 5020ms total)
T1560 447:454 JLINK_WriteReg(MSP, 0x20002000)  returns 0x00 (0000ms, 5020ms total)
T1560 447:454 JLINK_WriteReg(PSP, 0x20002000)  returns 0x00 (0000ms, 5020ms total)
T1560 447:454 JLINK_WriteReg(CFBP, 0x00000000)  returns 0x00 (0000ms, 5020ms total)
T1560 447:454 JLINK_SetBPEx(Addr = 0x20000000, Type = 0xFFFFFFF2)  returns 0x00000010 (0000ms, 5020ms total)
T1560 447:454 JLINK_Go() -- CPU_ReadMem(4 bytes @ 0xE0001000) (0004ms, 5024ms total)
T1560 447:459 JLINK_IsHalted()  returns FALSE (0000ms, 5024ms total)
T1560 447:480 JLINK_IsHalted()  returns FALSE (0001ms, 5025ms total)
T1560 447:482 JLINK_IsHalted()  returns FALSE (0001ms, 5025ms total)
T1560 447:484 JLINK_IsHalted()  returns FALSE (0001ms, 5025ms total)
T1560 447:486 JLINK_IsHalted()  returns FALSE (0001ms, 5026ms total)
T1560 447:488 JLINK_IsHalted()  returns FALSE (0001ms, 5026ms total)
T1560 447:490 JLINK_IsHalted()  returns FALSE (0001ms, 5026ms total)
T1560 447:492 JLINK_IsHalted()  returns FALSE (0001ms, 5026ms total)
T1560 447:494 JLINK_IsHalted()  returns FALSE (0001ms, 5026ms total)
T1560 447:496 JLINK_IsHalted()  returns FALSE (0001ms, 5026ms total)
T1560 447:498 JLINK_IsHalted()  returns FALSE (0001ms, 5026ms total)
T1560 447:500 JLINK_IsHalted()  returns FALSE (0001ms, 5026ms total)
T1560 447:502 JLINK_IsHalted()  returns FALSE (0001ms, 5026ms total)
T1560 447:504 JLINK_IsHalted()  returns FALSE (0001ms, 5026ms total)
T1560 447:506 JLINK_IsHalted()  returns FALSE (0001ms, 5026ms total)
T1560 447:508 JLINK_IsHalted()  returns FALSE (0001ms, 5026ms total)
T1560 447:510 JLINK_IsHalted()  returns FALSE (0001ms, 5026ms total)
T1560 447:512 JLINK_IsHalted()  returns FALSE (0001ms, 5026ms total)
T1560 447:514 JLINK_IsHalted()  returns FALSE (0000ms, 5025ms total)
T1560 447:518 JLINK_IsHalted()  returns FALSE (0001ms, 5026ms total)
T1560 447:520 JLINK_IsHalted()  returns FALSE (0001ms, 5026ms total)
T1560 447:522 JLINK_IsHalted()  returns FALSE (0001ms, 5026ms total)
T1560 447:524 JLINK_IsHalted()  returns FALSE (0001ms, 5026ms total)
T1560 447:526 JLINK_IsHalted()  returns FALSE (0001ms, 5026ms total)
T1560 447:534 JLINK_IsHalted() -- CPU_ReadMem(2 bytes @ 0x20000000)  returns TRUE (0005ms, 5030ms total)
T1560 447:539 JLINK_ReadReg(R15 (PC))  returns 0x20000000 (0000ms, 5030ms total)
T1560 447:539 JLINK_ClrBPEx(BPHandle = 0x00000010)  returns 0x00 (0000ms, 5030ms total)
T1560 447:539 JLINK_ReadReg(R0)  returns 0x00000000 (0000ms, 5030ms total)
T1560 447:540 JLINK_WriteMem(0x20000234, 0x01CC Bytes, ...) - Data: C7 F8 08 55 E0 68 01 F0 81 FC D4 E9 02 12 30 68 ... -- CPU_WriteMem(460 bytes @ 0x20000234)  returns 0x1CC (0007ms, 5037ms total)
T1560 447:547 JLINK_WriteMem(0x20000400, 0x0400 Bytes, ...) - Data: 03 F0 F2 FA 05 1E 83 D1 30 6A 30 B1 3B 46 22 46 ... -- CPU_WriteMem(1024 bytes @ 0x20000400)  returns 0x400 (0012ms, 5049ms total)
T1560 447:560 JLINK_WriteMem(0x20000800, 0x0400 Bytes, ...) - Data: B0 07 20 D5 00 25 01 22 11 46 28 46 FF F7 C4 FF ... -- CPU_WriteMem(1024 bytes @ 0x20000800)  returns 0x400 (0012ms, 5061ms total)
T1560 447:572 JLINK_WriteMem(0x20000C00, 0x0400 Bytes, ...) - Data: F1 B3 DF F8 98 B0 0E 68 81 46 DB F8 00 40 87 68 ... -- CPU_WriteMem(1024 bytes @ 0x20000C00)  returns 0x400 (0013ms, 5074ms total)
T1560 447:585 JLINK_WriteMem(0x20001000, 0x0234 Bytes, ...) - Data: 81 FC BD E8 FC 9F 00 00 70 B5 0D 46 04 46 00 68 ... -- CPU_WriteMem(564 bytes @ 0x20001000)  returns 0x234 (0007ms, 5081ms total)
T1560 447:593 JLINK_WriteReg(R0, 0x00027000)  returns 0x00 (0001ms, 5083ms total)
T1560 447:594 JLINK_WriteReg(R1, 0x00001000)  returns 0x00 (0000ms, 5083ms total)
T1560 447:594 JLINK_WriteReg(R2, 0x20000234)  returns 0x00 (0000ms, 5083ms total)
T1560 447:594 JLINK_WriteReg(R3, 0x00000000)  returns 0x00 (0000ms, 5083ms total)
T1560 447:594 JLINK_WriteReg(R4, 0x00000000)  returns 0x00 (0000ms, 5083ms total)
T1560 447:594 JLINK_WriteReg(R5, 0x00000000)  returns 0x00 (0000ms, 5083ms total)
T1560 447:594 JLINK_WriteReg(R6, 0x00000000)  returns 0x00 (0000ms, 5083ms total)
T1560 447:594 JLINK_WriteReg(R7, 0x00000000)  returns 0x00 (0000ms, 5083ms total)
T1560 447:594 JLINK_WriteReg(R8, 0x00000000)  returns 0x00 (0000ms, 5083ms total)
